12:55:00.068   can0  00FF7801   [8]  10 00 00 D0 00 FF FF FF   '........'
12:55:00.071   can0  00FF7801   [8]  10 00 00 D0 00 FF FF FF   '........'
12:55:00.094   can0  00FF1400   [8]  11 00 02 00 00 01 D0 00   '........'
12:55:00.097   can0  00FF1700   [8]  EF 06 06 03 F9 00 00 00   '........'
12:55:00.099   can0  00FF1900   [8]  65 03 BC 03 9C 03 9E 03   'e.......'
12:55:00.101   can0  00FF1B00   [8]  04 00 08 00 FF FF 00 03   '........'
12:55:00.140   can0  00FF7801   [8]  10 00 00 D0 00 FF FF FF   '........'
12:55:00.142   can0  00FF1500   [8]  84 03 D5 03 7B 02 CA 02   '....{...'
12:55:00.145   can0  00FF1600   [8]  58 03 B2 03 7D 03 89 03   'X...}...'
12:55:00.146   can0  00FF1C00   [8]  A9 02 23 03 6E 02 BA 02   '..#.n...'
12:55:00.148   can0  00FF1800   [8]  00 00 01 00 FF FF FF FF   '........'
12:55:00.243   can0  00FF7801   [8]  10 00 00 D0 00 FF FF FF   '........'
12:55:00.344   can0  00FF7801   [8]  10 00 00 D0 00 FF FF FF   '........'
12:55:00.393   can0  00FF1500   [8]  84 03 D8 03 7B 02 CA 02   '....{...'
12:55:00.396   can0  00FF1600   [8]  58 03 B4 03 80 03 89 03   'X.......'
12:55:00.398   can0  00FF1C00   [8]  A9 02 24 03 6F 02 BA 02   '..$.o...'
12:55:00.399   can0  00FF1800   [8]  00 00 01 00 FF FF FF FF   '........'
12:55:00.447   can0  00FF7801   [8]  10 00 00 D0 00 FF FF FF   '........'
12:55:00.548   can0  00FF7801   [8]  10 00 00 D0 00 FF FF FF   '........'
12:55:00.644   can0  00FF1500   [8]  84 03 D5 03 7B 02 CA 02   '....{...'
12:55:00.647   can0  00FF1600   [8]  5A 03 B4 03 7D 03 89 03   'Z...}...'
12:55:00.649   can0  00FF1C00   [8]  AA 02 24 03 6E 02 BA 02   '..$.n...'
12:55:00.650   can0  00FF1800   [8]  00 00 01 00 FF FF FF FF   '........'
12:55:00.656   can0  00FF7801   [8]  10 00 00 D0 00 FF FF FF   '........'
12:55:00.750   can0  00FF7801   [8]  10 00 00 D0 00 FF FF FF   '........'
12:55:00.851   can0  00FF7801   [8]  10 00 00 D0 00 FF FF FF   '........'
12:55:00.897   can0  00FF1500   [8]  84 03 D8 03 7B 02 CA 02   '....{...'
12:55:00.901   can0  00FF1600   [8]  58 03 B4 03 80 03 86 03   'X.......'
12:55:00.904   can0  00FF1C00   [8]  A9 02 24 03 6F 02 B9 02   '..$.o...'
12:55:00.907   can0  00FF1800   [8]  00 00 01 00 FF FF FF FF   '........'
12:55:00.952   can0  00FF7801   [8]  10 00 00 D0 00 FF FF FF   '........'
12:55:01.053   can0  00FF7801   [8]  10 00 00 D0 00 FF FF FF   '........'
12:55:01.097   can0  00FF1400   [8]  11 00 02 00 00 01 D0 00   '........'
12:55:01.100   can0  00FF1700   [8]  EF 06 06 03 F9 00 00 00   '........'
12:55:01.104   can0  00FF1900   [8]  65 03 BC 03 9C 03 9E 03   'e.......'
12:55:01.107   can0  00FF1B00   [8]  04 00 08 00 FF FF 00 03   '........'
12:55:01.147   can0  00FF1500   [8]  84 03 D8 03 7B 02 CA 02   '....{...'
12:55:01.151   can0  00FF1600   [8]  58 03 B4 03 80 03 89 03   'X.......'
12:55:01.155   can0  00FF1C00   [8]  A9 02 24 03 6F 02 BA 02   '..$.o...'
12:55:01.158   can0  00FF1800   [8]  00 00 01 00 FF FF FF FF   '........'
12:55:01.161   can0  00FF7801   [8]  10 00 00 D0 00 FF FF FF   '........'
12:55:01.256   can0  00FF7801   [8]  10 00 00 D0 00 FF FF FF   '........'
12:55:01.359   can0  00FF7801   [8]  10 00 00 D0 00 FF FF FF   '........'
12:55:01.398   can0  00FF1500   [8]  84 03 D8 03 7B 02 CA 02   '....{...'
12:55:01.402   can0  00FF1600   [8]  58 03 B2 03 7D 03 89 03   'X...}...'
12:55:01.405   can0  00FF1C00   [8]  A9 02 23 03 6E 02 BA 02   '..#.n...'
12:55:01.408   can0  00FF1800   [8]  00 00 01 00 FF FF FF FF   '........'
12:55:01.458   can0  00FF7801   [8]  10 00 00 D0 00 FF FF FF   '........'
12:55:01.559   can0  00FF7801   [8]  10 00 00 D0 00 FF FF FF   '........'
12:55:01.649   can0  00FF1500   [8]  84 03 D8 03 7B 02 CA 02   '....{...'
12:55:01.653   can0  00FF1600   [8]  58 03 B4 03 80 03 89 03   'X.......'
12:55:01.656   can0  00FF1C00   [8]  A9 02 24 03 6F 02 BA 02   '..$.o...'
12:55:01.660   can0  00FF1800   [8]  00 00 01 00 FF FF FF FF   '........'
12:55:01.663   can0  00FF7801   [8]  10 00 00 D0 00 FF FF FF   '........'
12:55:01.761   can0  00FF7801   [8]  10 00 00 D0 00 FF FF FF   '........'
12:55:01.863   can0  00FF7801   [8]  10 00 00 D0 00 FF FF FF   '........'
12:55:01.900   can0  00FF1500   [8]  84 03 D8 03 7B 02 CA 02   '....{...'
12:55:01.904   can0  00FF1600   [8]  58 03 B4 03 80 03 89 03   'X.......'
12:55:01.907   can0  00FF1C00   [8]  A9 02 24 03 6F 02 BA 02   '..$.o...'
12:55:01.910   can0  00FF1800   [8]  00 00 01 00 FF FF FF FF   '........'
12:55:01.964   can0  00FF7801   [8]  10 00 00 D0 00 FF FF FF   '........'
12:55:02.067   can0  00FF7801   [8]  10 00 00 D0 00 FF FF FF   '........'
12:55:02.097   can0  00FF1400   [8]  11 00 02 00 00 01 D0 00   '........'
12:55:02.101   can0  00FF1700   [8]  EC 06 05 03 F9 00 00 00   '........'
12:55:02.104   can0  00FF1900   [8]  65 03 BC 03 9C 03 9E 03   'e.......'
12:55:02.107   can0  00FF1B00   [8]  04 00 08 00 FF FF 00 03   '........'
12:55:02.152   can0  00FF1500   [8]  84 03 D8 03 7B 02 CA 02   '....{...'
12:55:02.155   can0  00FF1600   [8]  58 03 B2 03 7D 03 89 03   'X...}...'
12:55:02.158   can0  00FF1C00   [8]  A9 02 23 03 6E 02 BA 02   '..#.n...'
12:55:02.161   can0  00FF1800   [8]  00 00 01 00 FF FF FF FF   '........'
12:55:02.166   can0  00FF7801   [8]  10 00 00 D0 00 FF FF FF   '........'
12:55:02.267   can0  00FF7801   [8]  10 00 00 D0 00 FF FF FF   '........'
12:55:02.368   can0  00FF7801   [8]  10 00 00 D0 00 FF FF FF   '........'
12:55:02.402   can0  00FF1500   [8]  84 03 D8 03 7B 02 CA 02   '....{...'
12:55:02.406   can0  00FF1600   [8]  58 03 B4 03 7D 03 89 03   'X...}...'
12:55:02.409   can0  00FF1C00   [8]  A9 02 24 03 6E 02 BA 02   '..$.n...'
12:55:02.412   can0  00FF1800   [8]  00 00 01 00 FF FF FF FF   '........'
12:55:02.469   can0  00FF7801   [8]  10 00 00 D0 00 FF FF FF   '........'
12:55:02.571   can0  00FF7801   [8]  10 00 00 D0 00 FF FF FF   '........'
12:55:02.653   can0  00FF1500   [8]  84 03 D8 03 7B 02 CA 02   '....{...'
12:55:02.657   can0  00FF1600   [8]  58 03 B4 03 80 03 89 03   'X.......'
12:55:02.660   can0  00FF1C00   [8]  A9 02 24 03 6F 02 BA 02   '..$.o...'
12:55:02.663   can0  00FF1800   [8]  00 00 01 00 FF FF FF FF   '........'
12:55:02.672   can0  00FF7801   [8]  10 00 00 D0 00 FF FF FF   '........'
12:55:02.775   can0  00FF7801   [8]  10 00 00 D0 00 FF FF FF   '........'
12:55:02.874   can0  00FF7801   [8]  10 00 00 D0 00 FF FF FF   '........'
12:55:02.904   can0  00FF1500   [8]  84 03 D8 03 7B 02 CA 02   '....{...'
12:55:02.908   can0  00FF1600   [8]  58 03 B4 03 80 03 89 03   'X.......'
12:55:02.911   can0  00FF1C00   [8]  A9 02 24 03 6F 02 BA 02   '..$.o...'
12:55:02.914   can0  00FF1800   [8]  00 00 01 00 FF FF FF FF   '........'
12:55:02.975   can0  00FF7801   [8]  10 00 00 D0 00 FF FF FF   '........'
12:55:03.076   can0  00FF7801   [8]  10 00 00 D0 00 FF FF FF   '........'
12:55:03.098   can0  00FF1400   [8]  11 00 02 00 00 01 D0 00   '........'
12:55:03.102   can0  00FF1700   [8]  EF 06 06 03 F9 00 00 00   '........'
12:55:03.105   can0  00FF1900   [8]  65 03 BC 03 9C 03 9E 03   'e.......'
12:55:03.108   can0  00FF1B00   [8]  04 00 08 00 FF FF 00 00   '........'
12:55:03.155   can0  00FF1500   [8]  84 03 D8 03 7B 02 CA 02   '....{...'
12:55:03.159   can0  00FF1600   [8]  58 03 B4 03 7D 03 89 03   'X...}...'
12:55:03.163   can0  00FF1C00   [8]  A9 02 24 03 6E 02 BA 02   '..$.n...'
12:55:03.166   can0  00FF1800   [8]  00 00 01 00 FF FF FF FF   '........'
12:55:03.177   can0  00FF7801   [8]  10 00 00 D0 00 FF FF FF   '........'
12:55:03.279   can0  00FF7801   [8]  10 00 00 D0 00 FF FF FF   '........'
12:55:03.380   can0  00FF7801   [8]  10 00 00 D0 00 FF FF FF   '........'
12:55:03.407   can0  00FF1500   [8]  84 03 D8 03 7B 02 D1 02   '....{...'
12:55:03.411   can0  00FF1600   [8]  58 03 B4 03 80 03 86 03   'X.......'
12:55:03.414   can0  00FF1C00   [8]  A9 02 24 03 6F 02 B9 02   '..$.o...'
12:55:03.417   can0  00FF1800   [8]  00 00 01 00 FF FF FF FF   '........'
12:55:03.483   can0  00FF7801   [8]  10 00 00 D0 00 FF FF FF   '........'
12:55:03.584   can0  00FF7801   [8]  10 00 00 D0 00 FF FF FF   '........'
12:55:03.657   can0  00FF1500   [8]  84 03 D8 03 7B 02 CA 02   '....{...'
12:55:03.661   can0  00FF1600   [8]  58 03 B4 03 80 03 86 03   'X.......'
12:55:03.664   can0  00FF1C00   [8]  A9 02 24 03 6F 02 B9 02   '..$.o...'
12:55:03.668   can0  00FF1800   [8]  00 00 01 00 FF FF FF FF   '........'
12:55:03.687   can0  00FF7801   [8]  10 00 00 D0 00 FF FF FF   '........'
12:55:03.788   can0  00FF7801   [8]  10 00 00 D0 00 FF FF FF   '........'
12:55:03.891   can0  00FF7801   [8]  10 00 00 D0 00 FF FF FF   '........'
12:55:03.912   can0  00FF1500   [8]  84 03 D8 03 7B 02 CA 02   '....{...'
12:55:03.916   can0  00FF1600   [8]  58 03 B4 03 7D 03 89 03   'X...}...'
12:55:03.919   can0  00FF1C00   [8]  A9 02 24 03 6E 02 BA 02   '..$.n...'
12:55:03.922   can0  00FF1800   [8]  00 00 01 00 FF FF FF FF   '........'
12:55:03.992   can0  00FF7801   [8]  10 00 00 D0 00 FF FF FF   '........'
12:55:04.095   can0  00FF7801   [8]  10 00 00 D0 00 FF FF FF   '........'
12:55:04.100   can0  00FF1400   [8]  11 00 02 00 00 01 D0 00   '........'
12:55:04.103   can0  00FF1700   [8]  EF 06 06 03 F9 00 00 00   '........'
12:55:04.107   can0  00FF1900   [8]  65 03 BC 03 9C 03 9E 03   'e.......'
12:55:04.109   can0  00FF1B00   [8]  04 00 08 00 FF FF 00 03   '........'
12:55:04.159   can0  00FF1500   [8]  84 03 D5 03 7B 02 CA 02   '....{...'
12:55:04.163   can0  00FF1600   [8]  58 03 B2 03 7D 03 89 03   'X...}...'
12:55:04.166   can0  00FF1C00   [8]  A9 02 23 03 6E 02 BA 02   '..#.n...'
12:55:04.170   can0  00FF1800   [8]  00 00 01 00 FF FF FF FF   '........'
12:55:04.196   can0  00FF7801   [8]  10 00 00 D0 00 FF FF FF   '........'
12:55:04.303   can0  00FF7801   [8]  10 00 00 D0 00 FF FF FF   '........'
12:55:04.400   can0  00FF7801   [8]  10 00 00 D0 00 FF FF FF   '........'
12:55:04.410   can0  00FF1500   [8]  84 03 D8 03 7B 02 D1 02   '....{...'
12:55:04.412   can0  00FF1600   [8]  58 03 B4 03 80 03 89 03   'X.......'
12:55:04.414   can0  00FF1C00   [8]  A9 02 24 03 6F 02 BA 02   '..$.o...'
12:55:04.416   can0  00FF1800   [8]  00 00 01 00 FF FF FF FF   '........'
12:55:04.503   can0  00FF7801   [8]  10 00 00 D0 00 FF FF FF   '........'
12:55:04.604   can0  00FF7801   [8]  10 00 00 D0 00 FF FF FF   '........'
12:55:04.661   can0  00FF1500   [8]  84 03 D8 03 7B 02 CA 02   '....{...'
12:55:04.665   can0  00FF1600   [8]  58 03 B2 03 7D 03 89 03   'X...}...'
12:55:04.668   can0  00FF1C00   [8]  A9 02 23 03 6E 02 BA 02   '..#.n...'
12:55:04.671   can0  00FF1800   [8]  00 00 01 00 FF FF FF FF   '........'
12:55:04.707   can0  00FF7801   [8]  10 00 00 D0 00 FF FF FF   '........'
12:55:04.806   can0  00FF7801   [8]  10 00 00 D0 00 FF FF FF   '........'
12:55:04.907   can0  00FF7801   [8]  10 00 00 D0 00 FF FF FF   '........'
12:55:04.922   can0  00FF1500   [8]  84 03 D8 03 7B 02 D1 02   '....{...'
12:55:04.926   can0  00FF1600   [8]  58 03 B4 03 7D 03 89 03   'X...}...'
12:55:04.928   can0  00FF1C00   [8]  A9 02 24 03 6E 02 BA 02   '..$.n...'
12:55:04.931   can0  00FF1800   [8]  00 00 01 00 FF FF FF FF   '........'
12:55:05.008   can0  00FF7801   [8]  10 00 00 D0 00 FF FF FF   '........'
12:55:05.100   can0  00FF1400   [8]  11 00 02 00 00 01 D0 00   '........'
12:55:05.104   can0  00FF1700   [8]  EF 06 06 03 FA 00 00 00   '........'
12:55:05.105   can0  00FF1900   [8]  65 03 BC 03 9C 03 9E 03   'e.......'
12:55:05.106   can0  00FF1B00   [8]  04 00 08 00 FF FF 00 03   '........'
12:55:05.112   can0  00FF7801   [8]  10 00 00 D0 00 FF FF FF   '........'
12:55:05.164   can0  00FF1500   [8]  84 03 D5 03 7B 02 CA 02   '....{...'
12:55:05.167   can0  00FF1600   [8]  58 03 B2 03 7D 03 89 03   'X...}...'
12:55:05.170   can0  00FF1C00   [8]  A9 02 23 03 6E 02 BA 02   '..#.n...'
12:55:05.173   can0  00FF1800   [8]  00 00 01 00 FF FF FF FF   '........'
12:55:05.211   can0  00FF7801   [8]  10 00 00 D0 00 FF FF FF   '........'
12:55:05.312   can0  00FF7801   [8]  10 00 00 D0 00 FF FF FF   '........'
12:55:05.422   can0  00FF1500   [8]  84 03 D5 03 7B 02 CA 02   '....{...'
12:55:05.426   can0  00FF1600   [8]  58 03 B2 03 7D 03 89 03   'X...}...'
12:55:05.429   can0  00FF1C00   [8]  A9 02 24 03 6E 02 BA 02   '..$.n...'
12:55:05.431   can0  00FF7801   [8]  10 00 00 D0 00 FF FF FF   '........'
12:55:05.434   can0  00FF1800   [8]  00 00 01 00 FF FF FF FF   '........'
12:55:05.514   can0  00FF7801   [8]  10 00 00 D0 00 FF FF FF   '........'
12:55:05.615   can0  00FF7801   [8]  10 00 00 D0 00 FF FF FF   '........'
12:55:05.665   can0  00FF1500   [8]  84 03 D8 03 7B 02 CA 02   '....{...'
12:55:05.669   can0  00FF1600   [8]  58 03 B4 03 80 03 86 03   'X.......'
12:55:05.674   can0  00FF1C00   [8]  A9 02 24 03 6F 02 B9 02   '..$.o...'
12:55:05.677   can0  00FF1800   [8]  00 00 01 00 FF FF FF FF   '........'
12:55:05.716   can0  00FF7801   [8]  10 00 00 D0 00 FF FF FF   '........'
12:55:05.817   can0  00FF7801   [8]  10 00 00 D0 00 FF FF FF   '........'
12:55:05.917   can0  00FF1500   [8]  84 03 D5 03 7B 02 D1 02   '....{...'
12:55:05.921   can0  00FF1600   [8]  58 03 B2 03 7D 03 89 03   'X...}...'
12:55:05.924   can0  00FF1C00   [8]  A9 02 23 03 6E 02 BA 02   '..#.n...'
12:55:05.928   can0  00FF1800   [8]  00 00 01 00 FF FF FF FF   '........'
12:55:05.931   can0  00FF7801   [8]  10 00 00 D0 00 FF FF FF   '........'
12:55:06.020   can0  00FF7801   [8]  10 00 00 D0 00 FF FF FF   '........'
12:55:06.101   can0  00FF1400   [8]  11 00 02 00 00 01 D0 00   '........'
12:55:06.105   can0  00FF1700   [8]  EF 06 06 03 F9 00 00 00   '........'
12:55:06.108   can0  00FF1900   [8]  65 03 BC 03 9C 03 9E 03   'e.......'
12:55:06.111   can0  00FF1B00   [8]  04 00 08 00 FF FF 00 00   '........'
12:55:06.123   can0  00FF7801   [8]  10 00 00 D0 00 FF FF FF   '........'
12:55:06.167   can0  00FF1500   [8]  84 03 D8 03 7B 02 D1 02   '....{...'
12:55:06.171   can0  00FF1600   [8]  58 03 B2 03 80 03 89 03   'X.......'
12:55:06.175   can0  00FF1C00   [8]  A9 02 23 03 6F 02 BA 02   '..#.o...'
12:55:06.178   can0  00FF1800   [8]  00 00 01 00 FF FF FF FF   '........'
12:55:06.223   can0  00FF7801   [8]  10 00 00 D0 00 FF FF FF   '........'
12:55:06.323   can0  00FF7801   [8]  10 00 00 D0 00 FF FF FF   '........'
12:55:06.419   can0  00FF1500   [8]  84 03 D5 03 7B 02 D1 02   '....{...'
12:55:06.423   can0  00FF1600   [8]  58 03 B2 03 7D 03 89 03   'X...}...'
12:55:06.426   can0  00FF1C00   [8]  A9 02 23 03 6E 02 BA 02   '..#.n...'
12:55:06.430   can0  00FF1800   [8]  00 00 01 00 FF FF FF FF   '........'
12:55:06.433   can0  00FF7801   [8]  10 00 00 D0 00 FF FF FF   '........'
12:55:06.525   can0  00FF7801   [8]  10 00 00 D0 00 FF FF FF   '........'
12:55:06.627   can0  00FF7801   [8]  10 00 00 D0 00 FF FF FF   '........'
12:55:06.670   can0  00FF1500   [8]  84 03 D5 03 7B 02 CA 02   '....{...'
12:55:06.673   can0  00FF1600   [8]  58 03 B2 03 7D 03 89 03   'X...}...'
12:55:06.677   can0  00FF1C00   [8]  A9 02 23 03 6E 02 BA 02   '..#.n...'
12:55:06.680   can0  00FF1800   [8]  00 00 01 00 FF FF FF FF   '........'
12:55:06.728   can0  00FF7801   [8]  10 00 00 D0 00 FF FF FF   '........'
12:55:06.831   can0  00FF7801   [8]  10 00 00 D0 00 FF FF FF   '........'
12:55:06.922   can0  00FF1500   [8]  84 03 D8 03 7B 02 CA 02   '....{...'
12:55:06.926   can0  00FF1600   [8]  58 03 B2 03 80 03 89 03   'X.......'
12:55:06.929   can0  00FF1C00   [8]  A9 02 23 03 6F 02 BA 02   '..#.o...'
12:55:06.932   can0  00FF1800   [8]  00 00 01 00 FF FF FF FF   '........'
12:55:06.935   can0  00FF7801   [8]  10 00 00 D0 00 FF FF FF   '........'
12:55:07.031   can0  00FF7801   [8]  10 00 00 D0 00 FF FF FF   '........'
12:55:07.103   can0  00FF1400   [8]  11 00 02 00 00 01 D0 00   '........'
12:55:07.107   can0  00FF1700   [8]  EC 06 06 03 F9 00 00 00   '........'
12:55:07.110   can0  00FF1900   [8]  65 03 BC 03 9C 03 9E 03   'e.......'
12:55:07.113   can0  00FF1B00   [8]  04 00 08 00 FF FF 00 00   '........'
12:55:07.133   can0  00FF7801   [8]  10 00 00 D0 00 FF FF FF   '........'
12:55:07.172   can0  00FF1500   [8]  84 03 D5 03 7B 02 CA 02   '....{...'
12:55:07.175   can0  00FF1600   [8]  58 03 B2 03 7D 03 89 03   'X...}...'
12:55:07.178   can0  00FF1C00   [8]  A9 02 23 03 6E 02 BA 02   '..#.n...'
12:55:07.181   can0  00FF1800   [8]  00 00 01 00 FF FF FF FF   '........'
12:55:07.233   can0  00FF7801   [8]  10 00 00 D0 00 FF FF FF   '........'
12:55:07.335   can0  00FF7801   [8]  10 00 00 D0 00 FF FF FF   '........'
12:55:07.423   can0  00FF1500   [8]  84 03 D5 03 7B 02 CA 02   '....{...'
12:55:07.426   can0  00FF1600   [8]  58 03 B2 03 7D 03 89 03   'X...}...'
12:55:07.429   can0  00FF1C00   [8]  A9 02 23 03 6E 02 BA 02   '..#.n...'
12:55:07.433   can0  00FF1800   [8]  00 00 01 00 FF FF FF FF   '........'
12:55:07.436   can0  00FF7801   [8]  10 00 00 D0 00 FF FF FF   '........'
12:55:07.539   can0  00FF7801   [8]  10 00 00 D0 00 FF FF FF   '........'
12:55:07.640   can0  00FF7801   [8]  10 00 00 D0 00 FF FF FF   '........'
12:55:07.682   can0  00FF1500   [8]  84 03 D8 03 7B 02 CA 02   '....{...'
12:55:07.686   can0  00FF1600   [8]  58 03 B2 03 7D 03 89 03   'X...}...'
12:55:07.689   can0  00FF1C00   [8]  A9 02 23 03 6E 02 BA 02   '..#.n...'
12:55:07.691   can0  00FF1800   [8]  00 00 01 00 FF FF FF FF   '........'
12:55:07.743   can0  00FF7801   [8]  10 00 00 D0 00 FF FF FF   '........'
12:55:07.844   can0  00FF7801   [8]  10 00 00 D0 00 FF FF FF   '........'
12:55:07.924   can0  00FF1500   [8]  84 03 D8 03 7B 02 CA 02   '....{...'
12:55:07.928   can0  00FF1600   [8]  58 03 B4 03 80 03 86 03   'X.......'
12:55:07.931   can0  00FF1C00   [8]  A9 02 24 03 6F 02 B9 02   '..$.o...'
12:55:07.935   can0  00FF1800   [8]  00 00 01 00 FF FF FF FF   '........'
12:55:07.947   can0  00FF7801   [8]  10 00 00 D0 00 FF FF FF   '........'
12:55:08.048   can0  00FF7801   [8]  10 00 00 D0 00 FF FF FF   '........'
12:55:08.104   can0  00FF1400   [8]  11 00 02 00 00 01 D0 00   '........'
12:55:08.107   can0  00FF1700   [8]  EF 06 06 03 FA 00 00 00   '........'
12:55:08.111   can0  00FF1900   [8]  65 03 BC 03 9C 03 9E 03   'e.......'
12:55:08.114   can0  00FF1B00   [8]  04 00 08 00 FF FF 00 03   '........'
12:55:08.151   can0  00FF7801   [8]  10 00 00 D0 00 FF FF FF   '........'
12:55:08.175   can0  00FF1500   [8]  84 03 D8 03 7B 02 CA 02   '....{...'
12:55:08.179   can0  00FF1600   [8]  58 03 B4 03 80 03 89 03   'X.......'
12:55:08.183   can0  00FF1C00   [8]  A9 02 24 03 6F 02 BA 02   '..$.o...'
12:55:08.186   can0  00FF1800   [8]  00 00 01 00 FF FF FF FF   '........'
12:55:08.250   can0  00FF7801   [8]  10 00 00 D0 00 FF FF FF   '........'
12:55:08.351   can0  00FF7801   [8]  10 00 00 D0 00 FF FF FF   '........'
12:55:08.427   can0  00FF1500   [8]  84 03 D8 03 7B 02 CA 02   '....{...'
12:55:08.431   can0  00FF1600   [8]  58 03 B4 03 80 03 89 03   'X.......'
12:55:08.434   can0  00FF1C00   [8]  A9 02 24 03 6F 02 BA 02   '..$.o...'
12:55:08.437   can0  00FF1800   [8]  00 00 01 00 FF FF FF FF   '........'
12:55:08.453   can0  00FF7801   [8]  10 00 00 D0 00 FF FF FF   '........'
12:55:08.553   can0  00FF7801   [8]  10 00 00 D0 00 FF FF FF   '........'
12:55:08.655   can0  00FF7801   [8]  10 00 00 D0 00 FF FF FF   '........'
12:55:08.678   can0  00FF1500   [8]  84 03 D5 03 7B 02 CA 02   '....{...'
12:55:08.681   can0  00FF1600   [8]  58 03 B2 03 7D 03 89 03   'X...}...'
12:55:08.685   can0  00FF1C00   [8]  A9 02 23 03 6E 02 BA 02   '..#.n...'
12:55:08.688   can0  00FF1800   [8]  00 00 01 00 FF FF FF FF   '........'
12:55:08.756   can0  00FF7801   [8]  10 00 00 D0 00 FF FF FF   '........'
12:55:08.859   can0  00FF7801   [8]  10 00 00 D0 00 FF FF FF   '........'
12:55:08.929   can0  00FF1500   [8]  84 03 D8 03 7B 02 CA 02   '....{...'
12:55:08.933   can0  00FF1600   [8]  58 03 B2 03 7D 03 89 03   'X...}...'
12:55:08.936   can0  00FF1C00   [8]  A9 02 23 03 6E 02 BA 02   '..#.n...'
12:55:08.939   can0  00FF1800   [8]  00 00 01 00 FF FF FF FF   '........'
12:55:08.960   can0  00FF7801   [8]  10 00 00 D0 00 FF FF FF   '........'
12:55:09.063   can0  00FF7801   [8]  10 00 00 D0 00 FF FF FF   '........'
12:55:09.105   can0  00FF1400   [8]  11 00 02 00 00 01 D0 00   '........'
12:55:09.108   can0  00FF1700   [8]  EF 06 06 03 F9 00 00 00   '........'
12:55:09.111   can0  00FF1900   [8]  65 03 BC 03 9C 03 9E 03   'e.......'
12:55:09.115   can0  00FF1B00   [8]  04 00 08 00 FF FF 00 03   '........'
12:55:09.164   can0  00FF7801   [8]  10 00 00 D0 00 FF FF FF   '........'
12:55:09.180   can0  00FF1500   [8]  84 03 D8 03 7B 02 CA 02   '....{...'
12:55:09.184   can0  00FF1600   [8]  58 03 B2 03 7D 03 89 03   'X...}...'
12:55:09.187   can0  00FF1C00   [8]  A9 02 23 03 6E 02 BA 02   '..#.n...'
12:55:09.190   can0  00FF1800   [8]  00 00 01 00 FF FF FF FF   '........'
12:55:09.268   can0  00FF7801   [8]  10 00 00 D0 00 FF FF FF   '........'
12:55:09.368   can0  00FF7801   [8]  10 00 00 D0 00 FF FF FF   '........'
12:55:09.431   can0  00FF1500   [8]  84 03 D8 03 7B 02 CA 02   '....{...'
12:55:09.435   can0  00FF1600   [8]  58 03 B4 03 7D 03 89 03   'X...}...'
12:55:09.438   can0  00FF1C00   [8]  A9 02 24 03 6E 02 BA 02   '..$.n...'
12:55:09.441   can0  00FF1800   [8]  00 00 01 00 FF FF FF FF   '........'
12:55:09.472   can0  00FF7801   [8]  10 00 00 D0 00 FF FF FF   '........'
12:55:09.570   can0  00FF7801   [8]  10 00 00 D0 00 FF FF FF   '........'
12:55:09.671   can0  00FF7801   [8]  10 00 00 D0 00 FF FF FF   '........'
12:55:09.682   can0  00FF1500   [8]  84 03 D8 03 7B 02 CA 02   '....{...'
12:55:09.685   can0  00FF1600   [8]  58 03 B4 03 80 03 89 03   'X.......'
12:55:09.688   can0  00FF1C00   [8]  A9 02 24 03 6F 02 BA 02   '..$.o...'
12:55:09.691   can0  00FF1800   [8]  00 00 01 00 FF FF FF FF   '........'
12:55:09.773   can0  00FF7801   [8]  10 00 00 D0 00 FF FF FF   '........'
12:55:09.874   can0  00FF7801   [8]  10 00 00 D0 00 FF FF FF   '........'
12:55:09.933   can0  00FF1500   [8]  84 03 D8 03 7B 02 CA 02   '....{...'
12:55:09.937   can0  00FF1600   [8]  58 03 B4 03 80 03 89 03   'X.......'
12:55:09.940   can0  00FF1C00   [8]  A9 02 24 03 6F 02 BA 02   '..$.o...'
12:55:09.943   can0  00FF1800   [8]  00 00 01 00 FF FF FF FF   '........'
12:55:09.976   can0  00FF7801   [8]  10 00 00 D0 00 FF FF FF   '........'
12:55:10.076   can0  00FF7801   [8]  10 00 00 D0 00 FF FF FF   '........'
12:55:10.105   can0  00FF1400   [8]  11 00 02 00 00 01 D0 00   '........'
12:55:10.109   can0  00FF1700   [8]  EF 06 06 03 F9 00 00 00   '........'
12:55:10.110   can0  00FF1900   [8]  65 03 BC 03 9C 03 9E 03   'e.......'
12:55:10.111   can0  00FF1B00   [8]  04 00 08 00 FF FF 00 00   '........'
12:55:10.180   can0  00FF7801   [8]  10 00 00 D0 00 FF FF FF   '........'
12:55:10.185   can0  00FF1500   [8]  84 03 D8 03 7B 02 CA 02   '....{...'
12:55:10.188   can0  00FF1600   [8]  58 03 B2 03 80 03 89 03   'X.......'
12:55:10.191   can0  00FF1C00   [8]  A9 02 23 03 6F 02 BA 02   '..#.o...'
12:55:10.194   can0  00FF1800   [8]  00 00 01 00 FF FF FF FF   '........'
12:55:10.281   can0  00FF7801   [8]  10 00 00 D0 00 FF FF FF   '........'
12:55:10.384   can0  00FF7801   [8]  10 00 00 D0 00 FF FF FF   '........'
12:55:10.435   can0  00FF1500   [8]  84 03 D5 03 7B 02 CA 02   '....{...'
12:55:10.438   can0  00FF1600   [8]  58 03 B4 03 80 03 89 03   'X.......'
12:55:10.442   can0  00FF1C00   [8]  A9 02 24 03 6F 02 BA 02   '..$.o...'
12:55:10.445   can0  00FF1800   [8]  00 00 01 00 FF FF FF FF   '........'
12:55:10.483   can0  00FF7801   [8]  10 00 00 D0 00 FF FF FF   '........'
12:55:10.584   can0  00FF7801   [8]  10 00 00 D0 00 FF FF FF   '........'
12:55:10.685   can0  00FF7801   [8]  10 00 00 D0 00 FF FF FF   '........'
12:55:10.689   can0  00FF1500   [8]  84 03 D8 03 7B 02 CA 02   '....{...'
12:55:10.692   can0  00FF1600   [8]  58 03 B2 03 80 03 89 03   'X.......'
12:55:10.695   can0  00FF1C00   [8]  A9 02 23 03 6F 02 BA 02   '..#.o...'
12:55:10.698   can0  00FF1800   [8]  00 00 01 00 FF FF FF FF   '........'
12:55:10.786   can0  00FF7801   [8]  10 00 00 D0 00 FF FF FF   '........'
12:55:10.888   can0  00FF7801   [8]  10 00 00 D0 00 FF FF FF   '........'
12:55:10.937   can0  00FF1500   [8]  84 03 D8 03 7B 02 CA 02   '....{...'
12:55:10.941   can0  00FF1600   [8]  5A 03 B2 03 7D 03 89 03   'Z...}...'
12:55:10.944   can0  00FF1C00   [8]  AA 02 23 03 6E 02 BA 02   '..#.n...'
12:55:10.947   can0  00FF1800   [8]  00 00 01 00 FF FF FF FF   '........'
12:55:10.989   can0  00FF7801   [8]  10 00 00 D0 00 FF FF FF   '........'
12:55:11.092   can0  00FF7801   [8]  10 00 00 D0 00 FF FF FF   '........'
12:55:11.107   can0  00FF1400   [8]  11 00 02 00 00 01 D0 00   '........'
12:55:11.111   can0  00FF1700   [8]  EF 06 06 03 F9 00 00 00   '........'
12:55:11.115   can0  00FF1900   [8]  65 03 BC 03 9C 03 9E 03   'e.......'
12:55:11.118   can0  00FF1B00   [8]  04 00 08 00 FF FF 00 03   '........'
12:55:11.188   can0  00FF1500   [8]  84 03 D8 03 7B 02 CA 02   '....{...'
12:55:11.192   can0  00FF1600   [8]  58 03 B4 03 80 03 89 03   'X.......'
